
T2588 000:002 SEGGER J-Link V6.16c Log File (0001ms, 0003ms total)
T2588 000:002 DLL Compiled: Jun 16 2017 18:14:49 (0001ms, 0003ms total)
T2588 000:002 Logging started @ 2017-08-12 09:31 (0001ms, 0003ms total)
T2588 000:003 JLINK_SetWarnOutHandler(...) (0000ms, 0003ms total)
T2588 000:003 JLINK_OpenEx(...)
Firmware: J-Link ARM V8 compiled Nov 28 2014 13:44:46
Hardware: V8.00
S/N: 17935099
Feature(s): RDI,FlashDL,FlashBP,JFlashWEBSRV Webserver running on local port 19080 (0009ms, 0012ms total)
T2588 000:003   returns O.K. (0009ms, 0012ms total)
T2588 000:012 JLINK_GetEmuCaps()  returns 0xB9FF7BBF (0000ms, 0012ms total)
T2588 000:012 JLINK_TIF_GetAvailable(...) (0000ms, 0012ms total)
T2588 000:012 JLINK_SetErrorOutHandler(...) (0000ms, 0012ms total)
T2588 000:012 JLINK_ExecCommand("ProjectFile = "C:\Users\ABC\Downloads\modbusÊµÑé\USER\JLinkSettings.ini"", ...).   returns 0x00 (0162ms, 0174ms total)
T2588 000:174 JLINK_ExecCommand("Device = STM32F103ZE", ...). Device "STM32F103ZE" selected.  returns 0x00 (0004ms, 0178ms total)
T2588 000:178 JLINK_ExecCommand("DisableConnectionTimeout", ...).   returns 0x01 (0000ms, 0178ms total)
T2588 000:178 JLINK_GetHardwareVersion()  returns 0x13880 (0000ms, 0178ms total)
T2588 000:178 JLINK_GetDLLVersion()  returns 61603 (0000ms, 0178ms total)
T2588 000:178 JLINK_GetFirmwareString(...) (0000ms, 0178ms total)
T2588 000:178 JLINK_GetDLLVersion()  returns 61603 (0000ms, 0178ms total)
T2588 000:178 JLINK_GetCompileDateTime() (0000ms, 0178ms total)
T2588 000:178 JLINK_GetFirmwareString(...) (0000ms, 0178ms total)
T2588 000:178 JLINK_GetHardwareVersion()  returns 0x13880 (0000ms, 0178ms total)
T2588 000:178 JLINK_TIF_Select(JLINKARM_TIF_SWD)  returns 0x00 (0001ms, 0179ms total)
T2588 000:179 JLINK_SetSpeed(5000) (0000ms, 0179ms total)
T2588 000:179 JLINK_GetId() >0x10B TIF>Found SW-DP with ID 0x1BA01477 >0x0D TIF> >0x28 TIF> >0x0D TIF> >0x28 TIF> >0x0D TIF> >0x28 TIF> >0x0D TIF> >0x28 TIF> >0x0D TIF> >0x21 TIF> >0x0D TIF> >0x28 TIF> >0x0D TIF> >0x28 TIF> >0x0D TIF> >0x28 TIF> >0x0D TIF> >0x21 TIF> >0x0D TIF> >0x21 TIF> >0x0D TIF> >0x28 TIF> >0x0D TIF> >0x21 TIF> >0x0D TIF> >0x21 TIF> >0x0D TIF> >0x28 TIF> >0x0D TIF> >0x21 TIF> >0x0D TIF> >0x21 TIF> >0x0D TIF> >0x28 TIF> >0x0D TIF> >0x21 TIF> >0x0D TIF> >0x21 TIF> >0x0D TIF> >0x28 TIF>
 >0x0D TIF> >0x21 TIF> >0x0D TIF> >0x21 TIF> >0x0D TIF> >0x28 TIF> >0x0D TIF> >0x21 TIF> >0x0D TIF> >0x21 TIF> >0x0D TIF> >0x28 TIF> >0x0D TIF> >0x21 TIF> >0x0D TIF> >0x21 TIF> >0x10B TIF>Found SW-DP with ID 0x1BA01477 >0x0D TIF> >0x28 TIF> >0x0D TIF> >0x28 TIF> >0x0D TIF> >0x28 TIF> >0x0D TIF> >0x28 TIF> >0x0D TIF> >0x21 TIF> >0x0D TIF> >0x28 TIF>Scanning APs, stopping at first AHB-AP found. >0x0D TIF> >0x28 TIF> >0x0D TIF> >0x21 TIF> >0x0D TIF> >0x21 TIF>AP[0] IDR: 0x14770011 (AHB-AP) >0x0D TIF>
 >0x28 TIF> >0x0D TIF> >0x21 TIF> >0x0D TIF> >0x21 TIF>AHB-AP ROM: 0xE00FF000 (Base addr. of first ROM table) >0x0D TIF> >0x28 TIF> >0x0D TIF> >0x28 TIF> >0x0D TIF> >0x28 TIF> >0x0D TIF> >0x21 TIF> >0x0D TIF> >0x21 TIF> >0x0D TIF> >0x28 TIF> >0x0D TIF> >0x21 TIF> >0x0D TIF> >0x21 TIF>CPUID reg: 0x411FC231. Implementer code: 0x41 (ARM)Found Cortex-M3 r1p1, Little endian. -- CPU_ReadMem(4 bytes @ 0xE000EDF0) -- CPU_WriteMem(4 bytes @ 0xE000EDF0) -- CPU_ReadMem(4 bytes @ 0xE0002000)
FPUnit: 6 code (BP) slots and 2 literal slots -- CPU_ReadMem(4 bytes @ 0xE000EDFC) -- CPU_WriteMem(4 bytes @ 0xE000EDFC) -- CPU_ReadMem(4 bytes @ 0xE0001000) -- CPU_WriteMem(4 bytes @ 0xE0001000) -- CPU_ReadMem(4 bytes @ 0xE000ED88) -- CPU_WriteMem(4 bytes @ 0xE000ED88) -- CPU_ReadMem(4 bytes @ 0xE000ED88) -- CPU_WriteMem(4 bytes @ 0xE000ED88)CoreSight components:ROMTbl[0] @ E00FF000 -- CPU_ReadMem(16 bytes @ 0xE00FF000) -- CPU_ReadMem(16 bytes @ 0xE000EFF0) -- CPU_ReadMem(16 bytes @ 0xE000EFE0)
ROMTbl[0][0]: E000E000, CID: B105E00D, PID: 001BB000 SCS -- CPU_ReadMem(16 bytes @ 0xE0001FF0) -- CPU_ReadMem(16 bytes @ 0xE0001FE0)ROMTbl[0][1]: E0001000, CID: B105E00D, PID: 001BB002 DWT -- CPU_ReadMem(16 bytes @ 0xE0002FF0) -- CPU_ReadMem(16 bytes @ 0xE0002FE0)ROMTbl[0][2]: E0002000, CID: B105E00D, PID: 000BB003 FPB -- CPU_ReadMem(16 bytes @ 0xE0000FF0) -- CPU_ReadMem(16 bytes @ 0xE0000FE0)ROMTbl[0][3]: E0000000, CID: B105E00D, PID: 001BB001 ITM -- CPU_ReadMem(16 bytes @ 0xE00FF010)
 -- CPU_ReadMem(16 bytes @ 0xE0040FF0) -- CPU_ReadMem(16 bytes @ 0xE0040FE0)ROMTbl[0][4]: E0040000, CID: B105900D, PID: 001BB923 TPIU-Lite -- CPU_ReadMem(16 bytes @ 0xE0041FF0) -- CPU_ReadMem(16 bytes @ 0xE0041FE0)ROMTbl[0][5]: E0041000, CID: B105900D, PID: 101BB924 ETM-M3 >0x0D TIF> >0x21 TIF>  returns 0x1BA01477 (0038ms, 0217ms total)
T2588 000:217 JLINK_GetDLLVersion()  returns 61603 (0000ms, 0217ms total)
T2588 000:217 JLINK_CORE_GetFound()  returns 0x30000FF (0000ms, 0217ms total)
T2588 000:217 JLINK_GetDebugInfo(0x100 = JLINKARM_ROM_TABLE_ADDR_INDEX) -- Value=0xE00FF000  returns 0x00 (0000ms, 0217ms total)
T2588 000:217 JLINK_GetDebugInfo(0x100 = JLINKARM_ROM_TABLE_ADDR_INDEX) -- Value=0xE00FF000  returns 0x00 (0000ms, 0217ms total)
T2588 000:217 JLINK_GetDebugInfo(0x101 = JLINKARM_DEBUG_INFO_ETM_ADDR_INDEX) -- Value=0xE0041000  returns 0x00 (0000ms, 0217ms total)
T2588 000:217 JLINK_ReadMemEx(0xE0041FD0, 0x0020 Bytes, ..., Flags = 0x02000004) -- CPU_ReadMem(32 bytes @ 0xE0041FD0) - Data: 04 00 00 00 00 00 00 00 00 00 00 00 00 00 00 00 ...  returns 0x20 (0001ms, 0218ms total)
T2588 000:218 JLINK_GetDebugInfo(0x102 = JLINKARM_DEBUG_INFO_MTB_ADDR_INDEX) -- Value=0x00000000  returns 0x00 (0000ms, 0218ms total)
T2588 000:218 JLINK_GetDebugInfo(0x103 = JLINKARM_DEBUG_INFO_TPIU_ADDR_INDEX) -- Value=0xE0040000  returns 0x00 (0000ms, 0218ms total)
T2588 000:218 JLINK_GetDebugInfo(0x104 = JLINKARM_DEBUG_INFO_ITM_ADDR_INDEX) -- Value=0xE0000000  returns 0x00 (0000ms, 0218ms total)
T2588 000:218 JLINK_GetDebugInfo(0x105 = JLINKARM_DEBUG_INFO_DWT_ADDR_INDEX) -- Value=0xE0001000  returns 0x00 (0000ms, 0218ms total)
T2588 000:218 JLINK_GetDebugInfo(0x106 = JLINKARM_DEBUG_INFO_FPB_ADDR_INDEX) -- Value=0xE0002000  returns 0x00 (0000ms, 0218ms total)
T2588 000:218 JLINK_GetDebugInfo(0x107 = JLINKARM_DEBUG_INFO_NVIC_ADDR_INDEX) -- Value=0xE000E000  returns 0x00 (0000ms, 0218ms total)
T2588 000:218 JLINK_GetDebugInfo(0x10C = JLINKARM_DEBUG_INFO_DBG_ADDR_INDEX) -- Value=0xE000EDF0  returns 0x00 (0000ms, 0218ms total)
T2588 000:218 JLINK_ReadMemU32(0xE000ED00, 0x0001 Items, ...) -- CPU_ReadMem(4 bytes @ 0xE000ED00) - Data: 31 C2 1F 41  returns 0x01 (0001ms, 0219ms total)
T2588 000:219 JLINK_GetDebugInfo(0x10F = JLINKARM_DEBUG_INFO_HAS_CORTEX_M_SECURITY_EXT_INDEX) -- Value=0x00000000  returns 0x00 (0000ms, 0219ms total)
T2588 000:219 JLINK_SetResetType(JLINKARM_CM3_RESET_TYPE_NORMAL)  returns JLINKARM_CM3_RESET_TYPE_NORMAL (0000ms, 0219ms total)
T2588 000:219 JLINK_Reset() -- CPU is running -- CPU_WriteMem(4 bytes @ 0xE000EDF0) -- CPU is running -- CPU_WriteMem(4 bytes @ 0xE000EDFC) >0x35 TIF>Setting AIRCR.SYSRESETREQ -- CPU is running -- CPU_WriteMem(4 bytes @ 0xE000ED0C) >0x0D TIF> >0x28 TIF> -- CPU_ReadMem(4 bytes @ 0xE000ED0C) -- CPU_ReadMem(4 bytes @ 0xE000EDF0) -- CPU_ReadMem(4 bytes @ 0xE000EDF0) -- CPU_ReadMem(4 bytes @ 0xE000EDF0) -- CPU is running -- CPU_WriteMem(4 bytes @ 0xE000EDF0) -- CPU is running
 -- CPU_WriteMem(4 bytes @ 0xE000EDFC) -- CPU_ReadMem(4 bytes @ 0xE000EDF0) -- CPU_WriteMem(4 bytes @ 0xE0002000) -- CPU_ReadMem(4 bytes @ 0xE000EDFC) -- CPU_ReadMem(4 bytes @ 0xE0001000) (0065ms, 0284ms total)
T2588 000:284 JLINK_ReadReg(R15 (PC))  returns 0x08000524 (0000ms, 0284ms total)
T2588 000:284 JLINK_ReadReg(XPSR)  returns 0x01000000 (0000ms, 0284ms total)
T2588 000:284 JLINK_Halt()  returns 0x00 (0001ms, 0285ms total)
T2588 000:285 JLINK_ReadMemU32(0xE000EDF0, 0x0001 Items, ...) -- CPU_ReadMem(4 bytes @ 0xE000EDF0) - Data: 03 00 03 00  returns 0x01 (0000ms, 0285ms total)
T2588 000:285 JLINK_WriteU32(0xE000EDF0, 0xA05F0003) -- CPU_WriteMem(4 bytes @ 0xE000EDF0)  returns 0x00 (0000ms, 0285ms total)
T2588 000:285 JLINK_WriteU32(0xE000EDFC, 0x01000000) -- CPU_WriteMem(4 bytes @ 0xE000EDFC)  returns 0x00 (0001ms, 0286ms total)
T2588 000:286 JLINK_GetHWStatus(...)  returns 0x00 (0000ms, 0286ms total)
T2588 000:286 JLINK_GetNumBPUnits(Type = 0xFFFFFF00)  returns 0x06 (0000ms, 0286ms total)
T2588 000:286 JLINK_GetNumBPUnits(Type = 0xF0)  returns 0x2000 (0000ms, 0286ms total)
T2588 000:286 JLINK_GetNumWPUnits()  returns 0x04 (0000ms, 0286ms total)
T2588 000:286 JLINK_GetSpeed()  returns 0xFA0 (0000ms, 0286ms total)
T2588 000:286 JLINK_ReadMemU32(0xE000E004, 0x0001 Items, ...) -- CPU_ReadMem(4 bytes @ 0xE000E004) - Data: 01 00 00 00  returns 0x01 (0001ms, 0287ms total)
T2588 000:287 JLINK_ReadMemU32(0xE000E004, 0x0001 Items, ...) -- CPU_ReadMem(4 bytes @ 0xE000E004) - Data: 01 00 00 00  returns 0x01 (0000ms, 0287ms total)
T2588 000:287 JLINK_WriteMemEx(0xE0001000, 0x001C Bytes, ..., Flags = 0x02000004) - Data: 01 00 00 00 00 00 00 00 00 00 00 00 00 00 00 00 ... -- CPU_WriteMem(28 bytes @ 0xE0001000)  returns 0x1C (0001ms, 0288ms total)
T2588 000:288 JLINK_ReadReg(R15 (PC))  returns 0x08000524 (0000ms, 0288ms total)
T2588 000:288 JLINK_ReadReg(XPSR)  returns 0x01000000 (0000ms, 0288ms total)
T2588 000:486 JLINK_SetResetType(JLINKARM_CM3_RESET_TYPE_NORMAL)  returns JLINKARM_CM3_RESET_TYPE_NORMAL (0000ms, 0288ms total)
T2588 000:486 JLINK_Reset() -- CPU_WriteMem(4 bytes @ 0xE000EDF0) -- CPU_WriteMem(4 bytes @ 0xE000EDFC) >0x35 TIF>Setting AIRCR.SYSRESETREQ -- CPU_WriteMem(4 bytes @ 0xE000ED0C) >0x0D TIF> >0x28 TIF> -- CPU_ReadMem(4 bytes @ 0xE000ED0C) -- CPU_ReadMem(4 bytes @ 0xE000EDF0) -- CPU_ReadMem(4 bytes @ 0xE000EDF0) -- CPU_ReadMem(4 bytes @ 0xE000EDF0) -- CPU_WriteMem(4 bytes @ 0xE000EDF0) -- CPU_WriteMem(4 bytes @ 0xE000EDFC) -- CPU_ReadMem(4 bytes @ 0xE000EDF0) -- CPU_WriteMem(4 bytes @ 0xE0002000)
 -- CPU_ReadMem(4 bytes @ 0xE000EDFC) -- CPU_ReadMem(4 bytes @ 0xE0001000) (0065ms, 0353ms total)
T2588 000:551 JLINK_ReadReg(R15 (PC))  returns 0x08000524 (0000ms, 0353ms total)
T2588 000:551 JLINK_ReadReg(XPSR)  returns 0x01000000 (0000ms, 0353ms total)
T2588 000:551 JLINK_ReadMemEx(0x08000524, 0x003C Bytes, ..., Flags = 0x02000000) -- CPU_ReadMem(128 bytes @ 0x08000500) -- Updating C cache (128 bytes @ 0x08000500) -- Read from C cache (60 bytes @ 0x08000524) - Data: 09 48 80 47 09 48 00 47 FE E7 FE E7 FE E7 FE E7 ...  returns 0x3C (0002ms, 0355ms total)
T2588 002:322 JLINK_ReadReg(R0)  returns 0x00000000 (0000ms, 0355ms total)
T2588 002:322 JLINK_ReadReg(R1)  returns 0x00000003 (0000ms, 0355ms total)
T2588 002:322 JLINK_ReadReg(R2)  returns 0x40022000 (0000ms, 0355ms total)
T2588 002:322 JLINK_ReadReg(R3)  returns 0x04C11DB7 (0000ms, 0355ms total)
T2588 002:322 JLINK_ReadReg(R4)  returns 0x00000000 (0000ms, 0355ms total)
T2588 002:322 JLINK_ReadReg(R5)  returns 0x00000000 (0000ms, 0355ms total)
T2588 002:322 JLINK_ReadReg(R6)  returns 0x00000000 (0000ms, 0355ms total)
T2588 002:322 JLINK_ReadReg(R7)  returns 0x00000000 (0000ms, 0355ms total)
T2588 002:322 JLINK_ReadReg(R8)  returns 0x00000000 (0000ms, 0355ms total)
T2588 002:322 JLINK_ReadReg(R9)  returns 0x20000160 (0000ms, 0355ms total)
T2588 002:322 JLINK_ReadReg(R10)  returns 0x00000000 (0000ms, 0355ms total)
T2588 002:322 JLINK_ReadReg(R11)  returns 0x00000000 (0000ms, 0355ms total)
T2588 002:322 JLINK_ReadReg(R12)  returns 0x00000000 (0000ms, 0355ms total)
T2588 002:322 JLINK_ReadReg(R13 (SP))  returns 0x20001B80 (0000ms, 0355ms total)
T2588 002:322 JLINK_ReadReg(R14)  returns 0xFFFFFFFF (0000ms, 0355ms total)
T2588 002:323 JLINK_ReadReg(R15 (PC))  returns 0x08000524 (0000ms, 0356ms total)
T2588 002:323 JLINK_ReadReg(XPSR)  returns 0x01000000 (0000ms, 0356ms total)
T2588 002:323 JLINK_ReadReg(MSP)  returns 0x20001B80 (0000ms, 0356ms total)
T2588 002:323 JLINK_ReadReg(PSP)  returns 0x20001000 (0000ms, 0356ms total)
T2588 002:323 JLINK_ReadReg(CFBP)  returns 0x00000000 (0000ms, 0356ms total)
T113C 002:374 JLINK_ReadMemEx(0x08000524, 0x0002 Bytes, ..., Flags = 0x02000000) -- Read from C cache (2 bytes @ 0x08000524) - Data: 09 48  returns 0x02 (0000ms, 0356ms total)
T113C 002:374 JLINK_SetBPEx(Addr = 0x0800023C, Type = 0xFFFFFFF2)  returns 0x00000001 (0000ms, 0356ms total)
T113C 002:374 JLINK_SetBPEx(Addr = 0x080002A2, Type = 0xFFFFFFF2)  returns 0x00000002 (0000ms, 0356ms total)
T113C 002:374 JLINK_Go() -- CPU_WriteMem(4 bytes @ 0xE0002000) -- CPU_WriteMem(4 bytes @ 0xE0002000) -- CPU_ReadMem(4 bytes @ 0xE0001000) -- CPU_WriteMem(4 bytes @ 0xE0002008) -- CPU_WriteMem(4 bytes @ 0xE000200C) -- CPU_WriteMem(4 bytes @ 0xE0002010) -- CPU_WriteMem(4 bytes @ 0xE0002014) -- CPU_WriteMem(4 bytes @ 0xE0002018) -- CPU_WriteMem(4 bytes @ 0xE000201C) -- CPU_WriteMem(4 bytes @ 0xE0001004) (0004ms, 0360ms total)
T113C 002:479 JLINK_IsHalted()  returns TRUE (0002ms, 0362ms total)
T113C 002:481 JLINK_Halt()  returns 0x00 (0000ms, 0360ms total)
T113C 002:481 JLINK_IsHalted()  returns TRUE (0000ms, 0360ms total)
T113C 002:481 JLINK_IsHalted()  returns TRUE (0000ms, 0360ms total)
T113C 002:481 JLINK_IsHalted()  returns TRUE (0000ms, 0360ms total)
T113C 002:481 JLINK_ReadReg(R15 (PC))  returns 0x0800023C (0000ms, 0360ms total)
T113C 002:481 JLINK_ReadReg(XPSR)  returns 0x61000000 (0000ms, 0360ms total)
T113C 002:481 JLINK_ClrBPEx(BPHandle = 0x00000001)  returns 0x00 (0000ms, 0360ms total)
T113C 002:481 JLINK_ClrBPEx(BPHandle = 0x00000002)  returns 0x00 (0000ms, 0360ms total)
T113C 002:481 JLINK_ReadMemU32(0xE000ED30, 0x0001 Items, ...) -- CPU_ReadMem(4 bytes @ 0xE000ED30) - Data: 03 00 00 00  returns 0x01 (0001ms, 0361ms total)
T113C 002:482 JLINK_ReadMemU32(0xE0001028, 0x0001 Items, ...) -- CPU_ReadMem(4 bytes @ 0xE0001028) - Data: 00 00 00 00  returns 0x01 (0000ms, 0361ms total)
T113C 002:482 JLINK_ReadMemU32(0xE0001038, 0x0001 Items, ...) -- CPU_ReadMem(4 bytes @ 0xE0001038) - Data: 00 02 00 00  returns 0x01 (0000ms, 0361ms total)
T113C 002:482 JLINK_ReadMemU32(0xE0001048, 0x0001 Items, ...) -- CPU_ReadMem(4 bytes @ 0xE0001048) - Data: 00 00 00 00  returns 0x01 (0001ms, 0362ms total)
T113C 002:483 JLINK_ReadMemU32(0xE0001058, 0x0001 Items, ...) -- CPU_ReadMem(4 bytes @ 0xE0001058) - Data: 00 00 00 00  returns 0x01 (0000ms, 0362ms total)
T113C 002:483 JLINK_ReadReg(R0)  returns 0x20001580 (0000ms, 0362ms total)
T113C 002:483 JLINK_ReadReg(R1)  returns 0x20001780 (0000ms, 0362ms total)
T113C 002:483 JLINK_ReadReg(R2)  returns 0x20001780 (0000ms, 0362ms total)
T113C 002:483 JLINK_ReadReg(R3)  returns 0x20001780 (0000ms, 0362ms total)
T113C 002:483 JLINK_ReadReg(R4)  returns 0x00000000 (0000ms, 0362ms total)
T113C 002:483 JLINK_ReadReg(R5)  returns 0x20001520 (0000ms, 0362ms total)
T113C 002:483 JLINK_ReadReg(R6)  returns 0x00000000 (0000ms, 0362ms total)
T113C 002:483 JLINK_ReadReg(R7)  returns 0x00000000 (0000ms, 0362ms total)
T113C 002:483 JLINK_ReadReg(R8)  returns 0x00000000 (0000ms, 0362ms total)
T113C 002:483 JLINK_ReadReg(R9)  returns 0x20000160 (0000ms, 0362ms total)
T113C 002:483 JLINK_ReadReg(R10)  returns 0x08006FD4 (0000ms, 0362ms total)
T113C 002:483 JLINK_ReadReg(R11)  returns 0x00000000 (0000ms, 0362ms total)
T113C 002:483 JLINK_ReadReg(R12)  returns 0x20001560 (0000ms, 0362ms total)
T113C 002:483 JLINK_ReadReg(R13 (SP))  returns 0x20001B80 (0000ms, 0362ms total)
T113C 002:483 JLINK_ReadReg(R14)  returns 0x080001DB (0001ms, 0363ms total)
T113C 002:484 JLINK_ReadReg(R15 (PC))  returns 0x0800023C (0000ms, 0363ms total)
T113C 002:484 JLINK_ReadReg(XPSR)  returns 0x61000000 (0000ms, 0363ms total)
T113C 002:484 JLINK_ReadReg(MSP)  returns 0x20001B80 (0000ms, 0363ms total)
T113C 002:484 JLINK_ReadReg(PSP)  returns 0x20001000 (0000ms, 0363ms total)
T113C 002:484 JLINK_ReadReg(CFBP)  returns 0x00000000 (0000ms, 0363ms total)
T2588 002:484 JLINK_ReadMemU32(0xE0001004, 0x0001 Items, ...) -- CPU_ReadMem(4 bytes @ 0xE0001004) - Data: F3 1D 00 00  returns 0x01 (0001ms, 0364ms total)
T2588 002:487 JLINK_ReadMemEx(0x0800023C, 0x003C Bytes, ..., Flags = 0x02000000) -- CPU_ReadMem(128 bytes @ 0x08000200) -- Updating C cache (128 bytes @ 0x08000200) -- Read from C cache (60 bytes @ 0x0800023C) - Data: 8E B0 34 21 01 A8 03 F0 F4 FB 00 BF 02 F0 B4 F8 ...  returns 0x3C (0002ms, 0366ms total)
T2588 029:111 JLINK_ReadMemEx(0x0800023A, 0x0002 Bytes, ..., Flags = 0x02000000) -- Read from C cache (2 bytes @ 0x0800023A) - Data: 38 BD  returns 0x02 (0001ms, 0367ms total)
T113C 133:122 JLINK_ReadMemEx(0x0800023C, 0x0002 Bytes, ..., Flags = 0x02000000) -- Read from C cache (2 bytes @ 0x0800023C) - Data: 8E B0  returns 0x02 (0000ms, 0367ms total)
T113C 133:122 JLINK_SetBPEx(Addr = 0x080002A2, Type = 0xFFFFFFF2)  returns 0x00000003 (0000ms, 0367ms total)
T113C 133:122 JLINK_Go() -- CPU_WriteMem(4 bytes @ 0xE0002000) -- CPU_ReadMem(4 bytes @ 0xE0001000) -- CPU_WriteMem(4 bytes @ 0xE0002008) -- CPU_WriteMem(4 bytes @ 0xE000200C) (0002ms, 0369ms total)
T113C 133:226 JLINK_IsHalted()  returns FALSE (0000ms, 0369ms total)
T113C 133:327 JLINK_IsHalted()  returns FALSE (0000ms, 0369ms total)
T113C 133:428 JLINK_IsHalted()  returns FALSE (0000ms, 0369ms total)
T113C 133:529 JLINK_IsHalted()  returns FALSE (0000ms, 0369ms total)
T113C 133:630 JLINK_ReadMemU32(0xE0001004, 0x0001 Items, ...) -- CPU_ReadMem(4 bytes @ 0xE0001004) - Data: 69 C2 2A 02  returns 0x01 (0000ms, 0369ms total)
T113C 133:630 JLINK_IsHalted()  returns FALSE (0001ms, 0370ms total)
T113C 133:732 JLINK_IsHalted()  returns FALSE (0000ms, 0369ms total)
T113C 133:833 JLINK_IsHalted()  returns FALSE (0000ms, 0369ms total)
T113C 133:934 JLINK_IsHalted()  returns FALSE (0000ms, 0369ms total)
T113C 134:035 JLINK_IsHalted()  returns FALSE (0000ms, 0369ms total)
T113C 134:136 JLINK_IsHalted()  returns FALSE (0000ms, 0369ms total)
T113C 134:237 JLINK_ReadMemU32(0xE0001004, 0x0001 Items, ...) - Data: 69 C2 2A 02  returns 0x01 (0000ms, 0369ms total)
T113C 134:237 JLINK_IsHalted()  returns TRUE (0002ms, 0371ms total)
T113C 134:239 JLINK_Halt()  returns 0x00 (0000ms, 0369ms total)
T113C 134:239 JLINK_IsHalted()  returns TRUE (0000ms, 0369ms total)
T113C 134:239 JLINK_IsHalted()  returns TRUE (0000ms, 0369ms total)
T113C 134:239 JLINK_IsHalted()  returns TRUE (0000ms, 0369ms total)
T113C 134:239 JLINK_ReadReg(R15 (PC))  returns 0x080002A2 (0000ms, 0369ms total)
T113C 134:239 JLINK_ReadReg(XPSR)  returns 0x81000000 (0000ms, 0369ms total)
T113C 134:239 JLINK_ClrBPEx(BPHandle = 0x00000003)  returns 0x00 (0000ms, 0369ms total)
T113C 134:239 JLINK_ReadMemU32(0xE000ED30, 0x0001 Items, ...) -- CPU_ReadMem(4 bytes @ 0xE000ED30) - Data: 03 00 00 00  returns 0x01 (0001ms, 0370ms total)
T113C 134:240 JLINK_ReadMemU32(0xE0001028, 0x0001 Items, ...) -- CPU_ReadMem(4 bytes @ 0xE0001028) - Data: 00 00 00 00  returns 0x01 (0000ms, 0370ms total)
T113C 134:240 JLINK_ReadMemU32(0xE0001038, 0x0001 Items, ...) -- CPU_ReadMem(4 bytes @ 0xE0001038) - Data: 00 02 00 00  returns 0x01 (0001ms, 0371ms total)
T113C 134:241 JLINK_ReadMemU32(0xE0001048, 0x0001 Items, ...) -- CPU_ReadMem(4 bytes @ 0xE0001048) - Data: 00 00 00 00  returns 0x01 (0000ms, 0371ms total)
T113C 134:241 JLINK_ReadMemU32(0xE0001058, 0x0001 Items, ...) -- CPU_ReadMem(4 bytes @ 0xE0001058) - Data: 00 00 00 00  returns 0x01 (0001ms, 0372ms total)
T113C 134:242 JLINK_ReadReg(R0)  returns 0x00000001 (0000ms, 0372ms total)
T113C 134:242 JLINK_ReadReg(R1)  returns 0x000003E8 (0000ms, 0372ms total)
T113C 134:242 JLINK_ReadReg(R2)  returns 0x00000000 (0000ms, 0372ms total)
T113C 134:242 JLINK_ReadReg(R3)  returns 0xE000E000 (0000ms, 0372ms total)
T113C 134:242 JLINK_ReadReg(R4)  returns 0x00000000 (0000ms, 0372ms total)
T113C 134:242 JLINK_ReadReg(R5)  returns 0x20001520 (0000ms, 0372ms total)
T113C 134:242 JLINK_ReadReg(R6)  returns 0x00000000 (0000ms, 0372ms total)
T113C 134:242 JLINK_ReadReg(R7)  returns 0x00000000 (0000ms, 0372ms total)
T113C 134:242 JLINK_ReadReg(R8)  returns 0x00000000 (0000ms, 0372ms total)
T113C 134:242 JLINK_ReadReg(R9)  returns 0x20000160 (0000ms, 0372ms total)
T113C 134:242 JLINK_ReadReg(R10)  returns 0x08006FD4 (0000ms, 0372ms total)
T113C 134:242 JLINK_ReadReg(R11)  returns 0x00000000 (0000ms, 0372ms total)
T113C 134:242 JLINK_ReadReg(R12)  returns 0x3D17EE90 (0000ms, 0372ms total)
T113C 134:242 JLINK_ReadReg(R13 (SP))  returns 0x20001B48 (0000ms, 0372ms total)
T113C 134:242 JLINK_ReadReg(R14)  returns 0x08000297 (0000ms, 0372ms total)
T113C 134:242 JLINK_ReadReg(R15 (PC))  returns 0x080002A2 (0000ms, 0372ms total)
T113C 134:242 JLINK_ReadReg(XPSR)  returns 0x81000000 (0000ms, 0372ms total)
T113C 134:242 JLINK_ReadReg(MSP)  returns 0x20001B48 (0000ms, 0372ms total)
T113C 134:242 JLINK_ReadReg(PSP)  returns 0x20001000 (0000ms, 0372ms total)
T113C 134:242 JLINK_ReadReg(CFBP)  returns 0x00000000 (0000ms, 0372ms total)
T2588 134:242 JLINK_ReadMemU32(0xE0001004, 0x0001 Items, ...) - Data: 69 C2 2A 02  returns 0x01 (0000ms, 0372ms total)
T2588 134:245 JLINK_ReadMemEx(0x080002A2, 0x0002 Bytes, ..., Flags = 0x02000000) -- CPU_ReadMem(64 bytes @ 0x08000280) -- Updating C cache (64 bytes @ 0x08000280) -- Read from C cache (2 bytes @ 0x080002A2) - Data: 1C 49  returns 0x02 (0001ms, 0373ms total)
T2588 134:246 JLINK_ReadMemEx(0x080002A4, 0x003C Bytes, ..., Flags = 0x02000000) -- CPU_ReadMem(64 bytes @ 0x080002C0) -- Updating C cache (64 bytes @ 0x080002C0) -- Read from C cache (60 bytes @ 0x080002A4) - Data: 51 F8 24 00 06 F0 E4 FA 05 46 2A 46 0B 46 19 A1 ...  returns 0x3C (0001ms, 0374ms total)
T2588 135:415 JLINK_ReadMemEx(0x20001B4C, 0x0001 Bytes, ..., Flags = 0x02000000) -- CPU_ReadMem(64 bytes @ 0x20001B40) -- Updating C cache (64 bytes @ 0x20001B40) -- Read from C cache (1 bytes @ 0x20001B4C) - Data: 00  returns 0x01 (0001ms, 0375ms total)
T2588 135:416 JLINK_ReadMemEx(0x20001B4D, 0x0001 Bytes, ..., Flags = 0x02000000) -- Read from C cache (1 bytes @ 0x20001B4D) - Data: 00  returns 0x01 (0000ms, 0375ms total)
T2588 135:416 JLINK_ReadMemEx(0x20001B4E, 0x0001 Bytes, ..., Flags = 0x02000000) -- Read from C cache (1 bytes @ 0x20001B4E) - Data: 00  returns 0x01 (0000ms, 0375ms total)
T2588 135:416 JLINK_ReadMemEx(0x20001B4F, 0x0001 Bytes, ..., Flags = 0x02000000) -- Read from C cache (1 bytes @ 0x20001B4F) - Data: 00  returns 0x01 (0000ms, 0375ms total)
T2588 135:416 JLINK_ReadMemEx(0x20001B50, 0x0001 Bytes, ..., Flags = 0x02000000) -- Read from C cache (1 bytes @ 0x20001B50) - Data: 00  returns 0x01 (0000ms, 0375ms total)
T2588 135:416 JLINK_ReadMemEx(0x20001B51, 0x0001 Bytes, ..., Flags = 0x02000000) -- Read from C cache (1 bytes @ 0x20001B51) - Data: 00  returns 0x01 (0000ms, 0375ms total)
T2588 135:416 JLINK_ReadMemEx(0x20001B52, 0x0001 Bytes, ..., Flags = 0x02000000) -- Read from C cache (1 bytes @ 0x20001B52) - Data: 00  returns 0x01 (0000ms, 0375ms total)
T2588 135:416 JLINK_ReadMemEx(0x20001B53, 0x0001 Bytes, ..., Flags = 0x02000000) -- Read from C cache (1 bytes @ 0x20001B53) - Data: 00  returns 0x01 (0000ms, 0375ms total)
T2588 135:416 JLINK_ReadMemEx(0x20001B54, 0x0001 Bytes, ..., Flags = 0x02000000) -- Read from C cache (1 bytes @ 0x20001B54) - Data: 00  returns 0x01 (0000ms, 0375ms total)
T2588 135:416 JLINK_ReadMemEx(0x20001B55, 0x0001 Bytes, ..., Flags = 0x02000000) -- Read from C cache (1 bytes @ 0x20001B55) - Data: 00  returns 0x01 (0000ms, 0375ms total)
T2588 135:416 JLINK_ReadMemEx(0x20001B56, 0x0001 Bytes, ..., Flags = 0x02000000) -- Read from C cache (1 bytes @ 0x20001B56) - Data: 00  returns 0x01 (0000ms, 0375ms total)
T2588 135:416 JLINK_ReadMemEx(0x20001B57, 0x0001 Bytes, ..., Flags = 0x02000000) -- Read from C cache (1 bytes @ 0x20001B57) - Data: 00  returns 0x01 (0000ms, 0375ms total)
T2588 135:416 JLINK_ReadMemEx(0x20001B58, 0x0001 Bytes, ..., Flags = 0x02000000) -- Read from C cache (1 bytes @ 0x20001B58) - Data: 00  returns 0x01 (0000ms, 0375ms total)
T2588 135:416 JLINK_ReadMemEx(0x20001B59, 0x0001 Bytes, ..., Flags = 0x02000000) -- Read from C cache (1 bytes @ 0x20001B59) - Data: 00  returns 0x01 (0000ms, 0375ms total)
T2588 135:416 JLINK_ReadMemEx(0x20001B5A, 0x0001 Bytes, ..., Flags = 0x02000000) -- Read from C cache (1 bytes @ 0x20001B5A) - Data: 00  returns 0x01 (0001ms, 0376ms total)
T2588 135:417 JLINK_ReadMemEx(0x20001B5B, 0x0001 Bytes, ..., Flags = 0x02000000) -- Read from C cache (1 bytes @ 0x20001B5B) - Data: 00  returns 0x01 (0000ms, 0376ms total)
T2588 135:417 JLINK_ReadMemEx(0x20001B5C, 0x0001 Bytes, ..., Flags = 0x02000000) -- Read from C cache (1 bytes @ 0x20001B5C) - Data: 00  returns 0x01 (0000ms, 0376ms total)
T2588 135:417 JLINK_ReadMemEx(0x20001B5D, 0x0001 Bytes, ..., Flags = 0x02000000) -- Read from C cache (1 bytes @ 0x20001B5D) - Data: 00  returns 0x01 (0000ms, 0376ms total)
T2588 135:417 JLINK_ReadMemEx(0x20001B5E, 0x0001 Bytes, ..., Flags = 0x02000000) -- Read from C cache (1 bytes @ 0x20001B5E) - Data: 00  returns 0x01 (0000ms, 0376ms total)
T2588 135:417 JLINK_ReadMemEx(0x20001B5F, 0x0001 Bytes, ..., Flags = 0x02000000) -- Read from C cache (1 bytes @ 0x20001B5F) - Data: 00  returns 0x01 (0000ms, 0376ms total)
T2588 135:417 JLINK_ReadMemEx(0x20001B60, 0x0001 Bytes, ..., Flags = 0x02000000) -- Read from C cache (1 bytes @ 0x20001B60) - Data: 00  returns 0x01 (0000ms, 0376ms total)
T2588 135:417 JLINK_ReadMemEx(0x20001B61, 0x0001 Bytes, ..., Flags = 0x02000000) -- Read from C cache (1 bytes @ 0x20001B61) - Data: 00  returns 0x01 (0000ms, 0376ms total)
T2588 135:417 JLINK_ReadMemEx(0x20001B62, 0x0001 Bytes, ..., Flags = 0x02000000) -- Read from C cache (1 bytes @ 0x20001B62) - Data: 00  returns 0x01 (0000ms, 0376ms total)
T2588 135:417 JLINK_ReadMemEx(0x20001B63, 0x0001 Bytes, ..., Flags = 0x02000000) -- Read from C cache (1 bytes @ 0x20001B63) - Data: 00  returns 0x01 (0000ms, 0376ms total)
T2588 135:417 JLINK_ReadMemEx(0x20001B64, 0x0001 Bytes, ..., Flags = 0x02000000) -- Read from C cache (1 bytes @ 0x20001B64) - Data: 00  returns 0x01 (0000ms, 0376ms total)
T2588 135:417 JLINK_ReadMemEx(0x20001B65, 0x0001 Bytes, ..., Flags = 0x02000000) -- Read from C cache (1 bytes @ 0x20001B65) - Data: 00  returns 0x01 (0000ms, 0376ms total)
T2588 135:417 JLINK_ReadMemEx(0x20001B66, 0x0001 Bytes, ..., Flags = 0x02000000) -- Read from C cache (1 bytes @ 0x20001B66) - Data: 00  returns 0x01 (0000ms, 0376ms total)
T2588 135:417 JLINK_ReadMemEx(0x20001B67, 0x0001 Bytes, ..., Flags = 0x02000000) -- Read from C cache (1 bytes @ 0x20001B67) - Data: 00  returns 0x01 (0000ms, 0376ms total)
T2588 135:417 JLINK_ReadMemEx(0x20001B68, 0x0001 Bytes, ..., Flags = 0x02000000) -- Read from C cache (1 bytes @ 0x20001B68) - Data: 00  returns 0x01 (0000ms, 0376ms total)
T2588 135:417 JLINK_ReadMemEx(0x20001B69, 0x0001 Bytes, ..., Flags = 0x02000000) -- Read from C cache (1 bytes @ 0x20001B69) - Data: 00  returns 0x01 (0000ms, 0376ms total)
T2588 135:417 JLINK_ReadMemEx(0x20001B6A, 0x0001 Bytes, ..., Flags = 0x02000000) -- Read from C cache (1 bytes @ 0x20001B6A) - Data: 00  returns 0x01 (0000ms, 0376ms total)
T2588 135:417 JLINK_ReadMemEx(0x20001B6B, 0x0001 Bytes, ..., Flags = 0x02000000) -- Read from C cache (1 bytes @ 0x20001B6B) - Data: 00  returns 0x01 (0000ms, 0376ms total)
T2588 135:417 JLINK_ReadMemEx(0x20001B6C, 0x0001 Bytes, ..., Flags = 0x02000000) -- Read from C cache (1 bytes @ 0x20001B6C) - Data: 00  returns 0x01 (0000ms, 0376ms total)
T2588 135:417 JLINK_ReadMemEx(0x20001B6D, 0x0001 Bytes, ..., Flags = 0x02000000) -- Read from C cache (1 bytes @ 0x20001B6D) - Data: 00  returns 0x01 (0000ms, 0376ms total)
T2588 135:417 JLINK_ReadMemEx(0x20001B6E, 0x0001 Bytes, ..., Flags = 0x02000000) -- Read from C cache (1 bytes @ 0x20001B6E) - Data: 00  returns 0x01 (0000ms, 0376ms total)
T2588 135:417 JLINK_ReadMemEx(0x20001B6F, 0x0001 Bytes, ..., Flags = 0x02000000) -- Read from C cache (1 bytes @ 0x20001B6F) - Data: 00  returns 0x01 (0000ms, 0376ms total)
T2588 135:417 JLINK_ReadMemEx(0x20001B70, 0x0001 Bytes, ..., Flags = 0x02000000) -- Read from C cache (1 bytes @ 0x20001B70) - Data: 00  returns 0x01 (0000ms, 0376ms total)
T2588 135:417 JLINK_ReadMemEx(0x20001B71, 0x0001 Bytes, ..., Flags = 0x02000000) -- Read from C cache (1 bytes @ 0x20001B71) - Data: 00  returns 0x01 (0000ms, 0376ms total)
T2588 135:417 JLINK_ReadMemEx(0x20001B72, 0x0001 Bytes, ..., Flags = 0x02000000) -- Read from C cache (1 bytes @ 0x20001B72) - Data: 00  returns 0x01 (0000ms, 0376ms total)
T2588 135:417 JLINK_ReadMemEx(0x20001B73, 0x0001 Bytes, ..., Flags = 0x02000000) -- Read from C cache (1 bytes @ 0x20001B73) - Data: 00  returns 0x01 (0000ms, 0376ms total)
T2588 135:417 JLINK_ReadMemEx(0x20001B74, 0x0001 Bytes, ..., Flags = 0x02000000) -- Read from C cache (1 bytes @ 0x20001B74) - Data: 00  returns 0x01 (0000ms, 0376ms total)
T2588 135:417 JLINK_ReadMemEx(0x20001B75, 0x0001 Bytes, ..., Flags = 0x02000000) -- Read from C cache (1 bytes @ 0x20001B75) - Data: 00  returns 0x01 (0000ms, 0376ms total)
T2588 135:417 JLINK_ReadMemEx(0x20001B76, 0x0001 Bytes, ..., Flags = 0x02000000) -- Read from C cache (1 bytes @ 0x20001B76) - Data: 00  returns 0x01 (0000ms, 0376ms total)
T2588 135:417 JLINK_ReadMemEx(0x20001B77, 0x0001 Bytes, ..., Flags = 0x02000000) -- Read from C cache (1 bytes @ 0x20001B77) - Data: 00  returns 0x01 (0000ms, 0376ms total)
T2588 135:417 JLINK_ReadMemEx(0x20001B78, 0x0001 Bytes, ..., Flags = 0x02000000) -- Read from C cache (1 bytes @ 0x20001B78) - Data: 00  returns 0x01 (0000ms, 0376ms total)
T2588 135:417 JLINK_ReadMemEx(0x20001B79, 0x0001 Bytes, ..., Flags = 0x02000000) -- Read from C cache (1 bytes @ 0x20001B79) - Data: 00  returns 0x01 (0000ms, 0376ms total)
T2588 135:417 JLINK_ReadMemEx(0x20001B7A, 0x0001 Bytes, ..., Flags = 0x02000000) -- Read from C cache (1 bytes @ 0x20001B7A) - Data: 00  returns 0x01 (0000ms, 0376ms total)
T2588 135:418 JLINK_ReadMemEx(0x20001B7B, 0x0001 Bytes, ..., Flags = 0x02000000) -- Read from C cache (1 bytes @ 0x20001B7B) - Data: 00  returns 0x01 (0000ms, 0376ms total)
T2588 135:418 JLINK_ReadMemEx(0x20001B7C, 0x0001 Bytes, ..., Flags = 0x02000000) -- Read from C cache (1 bytes @ 0x20001B7C) - Data: 00  returns 0x01 (0000ms, 0376ms total)
T2588 135:418 JLINK_ReadMemEx(0x20001B7D, 0x0001 Bytes, ..., Flags = 0x02000000) -- Read from C cache (1 bytes @ 0x20001B7D) - Data: 00  returns 0x01 (0000ms, 0376ms total)
T113C 157:819 JLINK_ReadMemEx(0x080002A2, 0x0002 Bytes, ..., Flags = 0x02000000) -- Read from C cache (2 bytes @ 0x080002A2) - Data: 1C 49  returns 0x02 (0000ms, 0376ms total)
T113C 157:820 JLINK_Step() -- Read from C cache (2 bytes @ 0x080002A2) -- CPU_ReadMem(4 bytes @ 0xE000ED18) -- CPU_WriteMem(4 bytes @ 0xE000ED18) -- CPU_ReadMem(4 bytes @ 0xE000ED18) -- CPU_WriteMem(4 bytes @ 0xE000ED18) -- CPU_ReadMem(64 bytes @ 0x08000300) -- Updating C cache (64 bytes @ 0x08000300) -- Read from C cache (4 bytes @ 0x08000314) -- Simulated  returns 0x00 (0002ms, 0378ms total)
T113C 157:822 JLINK_ReadReg(R15 (PC))  returns 0x080002A4 (0000ms, 0378ms total)
T113C 157:823 JLINK_ReadReg(XPSR)  returns 0x81000000 (0000ms, 0378ms total)
T113C 157:823 JLINK_SetBPEx(Addr = 0x080002A2, Type = 0xFFFFFFF2)  returns 0x00000004 (0000ms, 0378ms total)
T113C 157:823 JLINK_Go() -- CPU_WriteMem(4 bytes @ 0xE0002000) -- CPU_ReadMem(4 bytes @ 0xE0001000) -- CPU_WriteMem(4 bytes @ 0xE0001004) (0002ms, 0380ms total)
T113C 157:926 JLINK_IsHalted()  returns FALSE (0000ms, 0380ms total)
T113C 158:027 JLINK_IsHalted()  returns FALSE (0000ms, 0380ms total)
T113C 158:128 JLINK_IsHalted()  returns FALSE (0000ms, 0380ms total)
T113C 158:229 JLINK_IsHalted()  returns FALSE (0000ms, 0380ms total)
T113C 158:330 JLINK_IsHalted()  returns FALSE (0000ms, 0380ms total)
T113C 158:431 JLINK_ReadMemU32(0xE0001004, 0x0001 Items, ...) -- CPU_ReadMem(4 bytes @ 0xE0001004) - Data: 40 9B 66 04  returns 0x01 (0000ms, 0380ms total)
T113C 158:431 JLINK_IsHalted()  returns TRUE (0003ms, 0383ms total)
T113C 158:434 JLINK_Halt()  returns 0x00 (0000ms, 0380ms total)
T113C 158:434 JLINK_IsHalted()  returns TRUE (0000ms, 0380ms total)
T113C 158:434 JLINK_IsHalted()  returns TRUE (0000ms, 0380ms total)
T113C 158:434 JLINK_IsHalted()  returns TRUE (0000ms, 0380ms total)
T113C 158:434 JLINK_ReadReg(R15 (PC))  returns 0x080002A2 (0000ms, 0380ms total)
T113C 158:434 JLINK_ReadReg(XPSR)  returns 0x81000000 (0000ms, 0380ms total)
T113C 158:434 JLINK_ClrBPEx(BPHandle = 0x00000004)  returns 0x00 (0000ms, 0380ms total)
T113C 158:434 JLINK_ReadMemU32(0xE000ED30, 0x0001 Items, ...) -- CPU_ReadMem(4 bytes @ 0xE000ED30) - Data: 03 00 00 00  returns 0x01 (0000ms, 0380ms total)
T113C 158:434 JLINK_ReadMemU32(0xE0001028, 0x0001 Items, ...) -- CPU_ReadMem(4 bytes @ 0xE0001028) - Data: 00 00 00 00  returns 0x01 (0001ms, 0381ms total)
T113C 158:435 JLINK_ReadMemU32(0xE0001038, 0x0001 Items, ...) -- CPU_ReadMem(4 bytes @ 0xE0001038) - Data: 00 02 00 00  returns 0x01 (0000ms, 0381ms total)
T113C 158:435 JLINK_ReadMemU32(0xE0001048, 0x0001 Items, ...) -- CPU_ReadMem(4 bytes @ 0xE0001048) - Data: 00 00 00 00  returns 0x01 (0001ms, 0382ms total)
T113C 158:436 JLINK_ReadMemU32(0xE0001058, 0x0001 Items, ...) -- CPU_ReadMem(4 bytes @ 0xE0001058) - Data: 00 00 00 00  returns 0x01 (0000ms, 0382ms total)
T113C 158:436 JLINK_ReadReg(R0)  returns 0x00010001 (0000ms, 0382ms total)
T113C 158:436 JLINK_ReadReg(R1)  returns 0x000001F4 (0000ms, 0382ms total)
T113C 158:436 JLINK_ReadReg(R2)  returns 0x00000000 (0000ms, 0382ms total)
T113C 158:436 JLINK_ReadReg(R3)  returns 0xE000E000 (0000ms, 0382ms total)
T113C 158:436 JLINK_ReadReg(R4)  returns 0x00000001 (0000ms, 0382ms total)
T113C 158:436 JLINK_ReadReg(R5)  returns 0x40000000 (0000ms, 0382ms total)
T113C 158:436 JLINK_ReadReg(R6)  returns 0x00000000 (0000ms, 0382ms total)
T113C 158:436 JLINK_ReadReg(R7)  returns 0x00000000 (0000ms, 0382ms total)
T113C 158:436 JLINK_ReadReg(R8)  returns 0x00000000 (0000ms, 0382ms total)
T113C 158:436 JLINK_ReadReg(R9)  returns 0x20000160 (0000ms, 0382ms total)
T113C 158:436 JLINK_ReadReg(R10)  returns 0x08006FD4 (0000ms, 0382ms total)
T113C 158:436 JLINK_ReadReg(R11)  returns 0x00000000 (0000ms, 0382ms total)
T113C 158:436 JLINK_ReadReg(R12)  returns 0xFFFFFFC8 (0000ms, 0382ms total)
T113C 158:436 JLINK_ReadReg(R13 (SP))  returns 0x20001B48 (0000ms, 0382ms total)
T113C 158:436 JLINK_ReadReg(R14)  returns 0x080002C9 (0000ms, 0382ms total)
T113C 158:436 JLINK_ReadReg(R15 (PC))  returns 0x080002A2 (0000ms, 0382ms total)
T113C 158:436 JLINK_ReadReg(XPSR)  returns 0x81000000 (0001ms, 0383ms total)
T113C 158:437 JLINK_ReadReg(MSP)  returns 0x20001B48 (0000ms, 0383ms total)
T113C 158:437 JLINK_ReadReg(PSP)  returns 0x20001000 (0000ms, 0383ms total)
T113C 158:437 JLINK_ReadReg(CFBP)  returns 0x00000000 (0000ms, 0383ms total)
T2588 158:437 JLINK_ReadMemU32(0xE0001004, 0x0001 Items, ...) - Data: 40 9B 66 04  returns 0x01 (0000ms, 0383ms total)
T113C 159:849 JLINK_ReadMemEx(0x080002A2, 0x0002 Bytes, ..., Flags = 0x02000000) -- CPU_ReadMem(64 bytes @ 0x08000280) -- Updating C cache (64 bytes @ 0x08000280) -- Read from C cache (2 bytes @ 0x080002A2) - Data: 1C 49  returns 0x02 (0001ms, 0384ms total)
T113C 159:850 JLINK_Step() -- Read from C cache (2 bytes @ 0x080002A2) -- CPU_ReadMem(64 bytes @ 0x08000300) -- Updating C cache (64 bytes @ 0x08000300) -- Read from C cache (4 bytes @ 0x08000314) -- Simulated  returns 0x00 (0001ms, 0385ms total)
T113C 159:851 JLINK_ReadReg(R15 (PC))  returns 0x080002A4 (0000ms, 0385ms total)
T113C 159:851 JLINK_ReadReg(XPSR)  returns 0x81000000 (0000ms, 0385ms total)
T113C 159:851 JLINK_SetBPEx(Addr = 0x080002A2, Type = 0xFFFFFFF2)  returns 0x00000005 (0000ms, 0385ms total)
T113C 159:851 JLINK_Go() -- CPU_WriteMem(4 bytes @ 0xE0002000) -- CPU_ReadMem(4 bytes @ 0xE0001000) -- CPU_WriteMem(4 bytes @ 0xE0001004) (0002ms, 0387ms total)
T113C 159:954 JLINK_IsHalted()  returns FALSE (0000ms, 0387ms total)
T113C 160:055 JLINK_IsHalted()  returns FALSE (0000ms, 0387ms total)
T113C 160:157 JLINK_IsHalted()  returns FALSE (0000ms, 0387ms total)
T113C 160:258 JLINK_IsHalted()  returns FALSE (0000ms, 0387ms total)
T113C 160:359 JLINK_IsHalted()  returns FALSE (0000ms, 0387ms total)
T113C 160:460 JLINK_ReadMemU32(0xE0001004, 0x0001 Items, ...) -- CPU_ReadMem(4 bytes @ 0xE0001004) - Data: B0 75 A2 06  returns 0x01 (0000ms, 0387ms total)
T113C 160:462 JLINK_IsHalted()  returns TRUE (0002ms, 0389ms total)
T113C 160:464 JLINK_Halt()  returns 0x00 (0000ms, 0387ms total)
T113C 160:464 JLINK_IsHalted()  returns TRUE (0000ms, 0387ms total)
T113C 160:465 JLINK_IsHalted()  returns TRUE (0000ms, 0387ms total)
T113C 160:465 JLINK_IsHalted()  returns TRUE (0000ms, 0387ms total)
T113C 160:465 JLINK_ReadReg(R15 (PC))  returns 0x080002A2 (0000ms, 0387ms total)
T113C 160:465 JLINK_ReadReg(XPSR)  returns 0x81000000 (0000ms, 0387ms total)
T113C 160:465 JLINK_ClrBPEx(BPHandle = 0x00000005)  returns 0x00 (0000ms, 0387ms total)
T113C 160:465 JLINK_ReadMemU32(0xE000ED30, 0x0001 Items, ...) -- CPU_ReadMem(4 bytes @ 0xE000ED30) - Data: 03 00 00 00  returns 0x01 (0000ms, 0387ms total)
T113C 160:465 JLINK_ReadMemU32(0xE0001028, 0x0001 Items, ...) -- CPU_ReadMem(4 bytes @ 0xE0001028) - Data: 00 00 00 00  returns 0x01 (0000ms, 0387ms total)
T113C 160:465 JLINK_ReadMemU32(0xE0001038, 0x0001 Items, ...) -- CPU_ReadMem(4 bytes @ 0xE0001038) - Data: 00 02 00 00  returns 0x01 (0001ms, 0388ms total)
T113C 160:466 JLINK_ReadMemU32(0xE0001048, 0x0001 Items, ...) -- CPU_ReadMem(4 bytes @ 0xE0001048) - Data: 00 00 00 00  returns 0x01 (0000ms, 0388ms total)
T113C 160:466 JLINK_ReadMemU32(0xE0001058, 0x0001 Items, ...) -- CPU_ReadMem(4 bytes @ 0xE0001058) - Data: 00 00 00 00  returns 0x01 (0001ms, 0389ms total)
T113C 160:467 JLINK_ReadReg(R0)  returns 0x00010001 (0000ms, 0389ms total)
T113C 160:467 JLINK_ReadReg(R1)  returns 0x000001F4 (0000ms, 0389ms total)
T113C 160:467 JLINK_ReadReg(R2)  returns 0x00000000 (0000ms, 0389ms total)
T113C 160:467 JLINK_ReadReg(R3)  returns 0xE000E000 (0000ms, 0389ms total)
T113C 160:467 JLINK_ReadReg(R4)  returns 0x00000002 (0000ms, 0389ms total)
T113C 160:467 JLINK_ReadReg(R5)  returns 0xA0000000 (0000ms, 0389ms total)
T113C 160:467 JLINK_ReadReg(R6)  returns 0x00000000 (0000ms, 0389ms total)
T113C 160:467 JLINK_ReadReg(R7)  returns 0x00000000 (0000ms, 0389ms total)
T113C 160:467 JLINK_ReadReg(R8)  returns 0x00000000 (0000ms, 0389ms total)
T113C 160:467 JLINK_ReadReg(R9)  returns 0x20000160 (0000ms, 0389ms total)
T113C 160:467 JLINK_ReadReg(R10)  returns 0x08006FD4 (0000ms, 0389ms total)
T113C 160:467 JLINK_ReadReg(R11)  returns 0x00000000 (0000ms, 0389ms total)
T113C 160:467 JLINK_ReadReg(R12)  returns 0xFFFFFFC9 (0000ms, 0389ms total)
T113C 160:467 JLINK_ReadReg(R13 (SP))  returns 0x20001B48 (0000ms, 0389ms total)
T113C 160:467 JLINK_ReadReg(R14)  returns 0x080002C9 (0000ms, 0389ms total)
T113C 160:467 JLINK_ReadReg(R15 (PC))  returns 0x080002A2 (0000ms, 0389ms total)
T113C 160:467 JLINK_ReadReg(XPSR)  returns 0x81000000 (0000ms, 0389ms total)
T113C 160:467 JLINK_ReadReg(MSP)  returns 0x20001B48 (0000ms, 0389ms total)
T113C 160:467 JLINK_ReadReg(PSP)  returns 0x20001000 (0000ms, 0389ms total)
T113C 160:467 JLINK_ReadReg(CFBP)  returns 0x00000000 (0000ms, 0389ms total)
T2588 160:467 JLINK_ReadMemU32(0xE0001004, 0x0001 Items, ...) - Data: B0 75 A2 06  returns 0x01 (0000ms, 0389ms total)
T113C 160:714 JLINK_ReadMemEx(0x080002A2, 0x0002 Bytes, ..., Flags = 0x02000000) -- CPU_ReadMem(64 bytes @ 0x08000280) -- Updating C cache (64 bytes @ 0x08000280) -- Read from C cache (2 bytes @ 0x080002A2) - Data: 1C 49  returns 0x02 (0001ms, 0390ms total)
T113C 160:715 JLINK_Step() -- Read from C cache (2 bytes @ 0x080002A2) -- CPU_ReadMem(64 bytes @ 0x08000300) -- Updating C cache (64 bytes @ 0x08000300) -- Read from C cache (4 bytes @ 0x08000314) -- Simulated  returns 0x00 (0001ms, 0391ms total)
T113C 160:716 JLINK_ReadReg(R15 (PC))  returns 0x080002A4 (0000ms, 0391ms total)
T113C 160:716 JLINK_ReadReg(XPSR)  returns 0x81000000 (0000ms, 0391ms total)
T113C 160:716 JLINK_SetBPEx(Addr = 0x080002A2, Type = 0xFFFFFFF2)  returns 0x00000006 (0000ms, 0391ms total)
T113C 160:716 JLINK_Go() -- CPU_WriteMem(4 bytes @ 0xE0002000) -- CPU_ReadMem(4 bytes @ 0xE0001000) -- CPU_WriteMem(4 bytes @ 0xE0001004) (0002ms, 0393ms total)
T113C 160:819 JLINK_IsHalted()  returns FALSE (0000ms, 0393ms total)
T113C 160:920 JLINK_IsHalted()  returns FALSE (0000ms, 0393ms total)
T113C 161:021 JLINK_IsHalted()  returns FALSE (0000ms, 0393ms total)
T113C 161:122 JLINK_IsHalted()  returns FALSE (0000ms, 0393ms total)
T113C 161:223 JLINK_ReadMemU32(0xE0001004, 0x0001 Items, ...) -- CPU_ReadMem(4 bytes @ 0xE0001004) - Data: 4D A8 CD 08  returns 0x01 (0000ms, 0393ms total)
T113C 161:223 JLINK_IsHalted()  returns FALSE (0001ms, 0394ms total)
T113C 161:325 JLINK_IsHalted()  returns TRUE (0002ms, 0395ms total)
T113C 161:327 JLINK_Halt()  returns 0x00 (0000ms, 0393ms total)
T113C 161:327 JLINK_IsHalted()  returns TRUE (0000ms, 0393ms total)
T113C 161:327 JLINK_IsHalted()  returns TRUE (0000ms, 0393ms total)
T113C 161:327 JLINK_IsHalted()  returns TRUE (0000ms, 0393ms total)
T113C 161:327 JLINK_ReadReg(R15 (PC))  returns 0x080002A2 (0000ms, 0393ms total)
T113C 161:327 JLINK_ReadReg(XPSR)  returns 0x81000000 (0000ms, 0393ms total)
T113C 161:327 JLINK_ClrBPEx(BPHandle = 0x00000006)  returns 0x00 (0000ms, 0393ms total)
T113C 161:327 JLINK_ReadMemU32(0xE000ED30, 0x0001 Items, ...) -- CPU_ReadMem(4 bytes @ 0xE000ED30) - Data: 03 00 00 00  returns 0x01 (0001ms, 0394ms total)
T113C 161:328 JLINK_ReadMemU32(0xE0001028, 0x0001 Items, ...) -- CPU_ReadMem(4 bytes @ 0xE0001028) - Data: 00 00 00 00  returns 0x01 (0000ms, 0394ms total)
T113C 161:328 JLINK_ReadMemU32(0xE0001038, 0x0001 Items, ...) -- CPU_ReadMem(4 bytes @ 0xE0001038) - Data: 00 02 00 00  returns 0x01 (0000ms, 0394ms total)
T113C 161:328 JLINK_ReadMemU32(0xE0001048, 0x0001 Items, ...) -- CPU_ReadMem(4 bytes @ 0xE0001048) - Data: 00 00 00 00  returns 0x01 (0001ms, 0395ms total)
T113C 161:329 JLINK_ReadMemU32(0xE0001058, 0x0001 Items, ...) -- CPU_ReadMem(4 bytes @ 0xE0001058) - Data: 00 00 00 00  returns 0x01 (0000ms, 0395ms total)
T113C 161:329 JLINK_ReadReg(R0)  returns 0x00010001 (0000ms, 0395ms total)
T113C 161:329 JLINK_ReadReg(R1)  returns 0x000001F4 (0000ms, 0395ms total)
T113C 161:329 JLINK_ReadReg(R2)  returns 0x00000000 (0000ms, 0395ms total)
T113C 161:329 JLINK_ReadReg(R3)  returns 0xE000E000 (0000ms, 0395ms total)
T113C 161:329 JLINK_ReadReg(R4)  returns 0x00000003 (0000ms, 0395ms total)
T113C 161:329 JLINK_ReadReg(R5)  returns 0x00000000 (0000ms, 0395ms total)
T113C 161:329 JLINK_ReadReg(R6)  returns 0x00000000 (0000ms, 0395ms total)
T113C 161:329 JLINK_ReadReg(R7)  returns 0x00000000 (0001ms, 0396ms total)
T113C 161:330 JLINK_ReadReg(R8)  returns 0x00000000 (0000ms, 0396ms total)
T113C 161:330 JLINK_ReadReg(R9)  returns 0x20000160 (0000ms, 0396ms total)
T113C 161:330 JLINK_ReadReg(R10)  returns 0x08006FD4 (0000ms, 0396ms total)
T113C 161:330 JLINK_ReadReg(R11)  returns 0x00000000 (0000ms, 0396ms total)
T113C 161:330 JLINK_ReadReg(R12)  returns 0xFFFFFFC9 (0000ms, 0396ms total)
T113C 161:330 JLINK_ReadReg(R13 (SP))  returns 0x20001B48 (0000ms, 0396ms total)
T113C 161:330 JLINK_ReadReg(R14)  returns 0x080002C9 (0000ms, 0396ms total)
T113C 161:330 JLINK_ReadReg(R15 (PC))  returns 0x080002A2 (0000ms, 0396ms total)
T113C 161:330 JLINK_ReadReg(XPSR)  returns 0x81000000 (0000ms, 0396ms total)
T113C 161:330 JLINK_ReadReg(MSP)  returns 0x20001B48 (0000ms, 0396ms total)
T113C 161:330 JLINK_ReadReg(PSP)  returns 0x20001000 (0000ms, 0396ms total)
T113C 161:330 JLINK_ReadReg(CFBP)  returns 0x00000000 (0000ms, 0396ms total)
T2588 161:330 JLINK_ReadMemU32(0xE0001004, 0x0001 Items, ...) - Data: 4D A8 CD 08  returns 0x01 (0000ms, 0396ms total)
T113C 161:635 JLINK_ReadMemEx(0x080002A2, 0x0002 Bytes, ..., Flags = 0x02000000) -- CPU_ReadMem(64 bytes @ 0x08000280) -- Updating C cache (64 bytes @ 0x08000280) -- Read from C cache (2 bytes @ 0x080002A2) - Data: 1C 49  returns 0x02 (0001ms, 0397ms total)
T113C 161:636 JLINK_Step() -- Read from C cache (2 bytes @ 0x080002A2) -- CPU_ReadMem(64 bytes @ 0x08000300) -- Updating C cache (64 bytes @ 0x08000300) -- Read from C cache (4 bytes @ 0x08000314) -- Simulated  returns 0x00 (0001ms, 0398ms total)
T113C 161:637 JLINK_ReadReg(R15 (PC))  returns 0x080002A4 (0000ms, 0398ms total)
T113C 161:637 JLINK_ReadReg(XPSR)  returns 0x81000000 (0000ms, 0398ms total)
T113C 161:637 JLINK_SetBPEx(Addr = 0x080002A2, Type = 0xFFFFFFF2)  returns 0x00000007 (0000ms, 0398ms total)
T113C 161:637 JLINK_Go() -- CPU_WriteMem(4 bytes @ 0xE0002000) -- CPU_ReadMem(4 bytes @ 0xE0001000) -- CPU_WriteMem(4 bytes @ 0xE0001004) (0002ms, 0400ms total)
T113C 161:740 JLINK_IsHalted()  returns FALSE (0000ms, 0400ms total)
T113C 161:841 JLINK_IsHalted()  returns FALSE (0000ms, 0400ms total)
T113C 161:942 JLINK_IsHalted()  returns FALSE (0000ms, 0400ms total)
T113C 162:043 JLINK_IsHalted()  returns FALSE (0000ms, 0400ms total)
T113C 162:144 JLINK_ReadMemU32(0xE0001004, 0x0001 Items, ...) -- CPU_ReadMem(4 bytes @ 0xE0001004) - Data: CC 08 F9 0A  returns 0x01 (0000ms, 0400ms total)
T113C 162:144 JLINK_IsHalted()  returns FALSE (0001ms, 0401ms total)
T113C 162:246 JLINK_IsHalted()  returns TRUE (0002ms, 0402ms total)
T113C 162:248 JLINK_Halt()  returns 0x00 (0000ms, 0400ms total)
T113C 162:248 JLINK_IsHalted()  returns TRUE (0000ms, 0400ms total)
T113C 162:248 JLINK_IsHalted()  returns TRUE (0000ms, 0400ms total)
T113C 162:248 JLINK_IsHalted()  returns TRUE (0000ms, 0400ms total)
T113C 162:248 JLINK_ReadReg(R15 (PC))  returns 0x080002A2 (0000ms, 0400ms total)
T113C 162:248 JLINK_ReadReg(XPSR)  returns 0x81000000 (0000ms, 0400ms total)
T113C 162:248 JLINK_ClrBPEx(BPHandle = 0x00000007)  returns 0x00 (0000ms, 0400ms total)
T113C 162:248 JLINK_ReadMemU32(0xE000ED30, 0x0001 Items, ...) -- CPU_ReadMem(4 bytes @ 0xE000ED30) - Data: 03 00 00 00  returns 0x01 (0001ms, 0401ms total)
T113C 162:249 JLINK_ReadMemU32(0xE0001028, 0x0001 Items, ...) -- CPU_ReadMem(4 bytes @ 0xE0001028) - Data: 00 00 00 00  returns 0x01 (0000ms, 0401ms total)
T113C 162:249 JLINK_ReadMemU32(0xE0001038, 0x0001 Items, ...) -- CPU_ReadMem(4 bytes @ 0xE0001038) - Data: 00 02 00 00  returns 0x01 (0000ms, 0401ms total)
T113C 162:249 JLINK_ReadMemU32(0xE0001048, 0x0001 Items, ...) -- CPU_ReadMem(4 bytes @ 0xE0001048) - Data: 00 00 00 00  returns 0x01 (0001ms, 0402ms total)
T113C 162:250 JLINK_ReadMemU32(0xE0001058, 0x0001 Items, ...) -- CPU_ReadMem(4 bytes @ 0xE0001058) - Data: 00 00 00 00  returns 0x01 (0000ms, 0402ms total)
T113C 162:250 JLINK_ReadReg(R0)  returns 0x00010001 (0000ms, 0402ms total)
T113C 162:250 JLINK_ReadReg(R1)  returns 0x000001F4 (0000ms, 0402ms total)
T113C 162:250 JLINK_ReadReg(R2)  returns 0x00000000 (0000ms, 0402ms total)
T113C 162:250 JLINK_ReadReg(R3)  returns 0xE000E000 (0000ms, 0402ms total)
T113C 162:250 JLINK_ReadReg(R4)  returns 0x00000004 (0000ms, 0402ms total)
T113C 162:250 JLINK_ReadReg(R5)  returns 0xC0000000 (0000ms, 0402ms total)
T113C 162:250 JLINK_ReadReg(R6)  returns 0x00000000 (0000ms, 0402ms total)
T113C 162:250 JLINK_ReadReg(R7)  returns 0x00000000 (0000ms, 0402ms total)
T113C 162:250 JLINK_ReadReg(R8)  returns 0x00000000 (0001ms, 0403ms total)
T113C 162:251 JLINK_ReadReg(R9)  returns 0x20000160 (0000ms, 0403ms total)
T113C 162:251 JLINK_ReadReg(R10)  returns 0x08006FD4 (0000ms, 0403ms total)
T113C 162:251 JLINK_ReadReg(R11)  returns 0x00000000 (0000ms, 0403ms total)
T113C 162:251 JLINK_ReadReg(R12)  returns 0xFFFFFFC9 (0000ms, 0403ms total)
T113C 162:251 JLINK_ReadReg(R13 (SP))  returns 0x20001B48 (0000ms, 0403ms total)
T113C 162:251 JLINK_ReadReg(R14)  returns 0x080002C9 (0000ms, 0403ms total)
T113C 162:251 JLINK_ReadReg(R15 (PC))  returns 0x080002A2 (0000ms, 0403ms total)
T113C 162:251 JLINK_ReadReg(XPSR)  returns 0x81000000 (0000ms, 0403ms total)
T113C 162:251 JLINK_ReadReg(MSP)  returns 0x20001B48 (0000ms, 0403ms total)
T113C 162:251 JLINK_ReadReg(PSP)  returns 0x20001000 (0000ms, 0403ms total)
T113C 162:251 JLINK_ReadReg(CFBP)  returns 0x00000000 (0000ms, 0403ms total)
T2588 162:251 JLINK_ReadMemU32(0xE0001004, 0x0001 Items, ...) - Data: CC 08 F9 0A  returns 0x01 (0000ms, 0403ms total)
T113C 162:450 JLINK_ReadMemEx(0x080002A2, 0x0002 Bytes, ..., Flags = 0x02000000) -- CPU_ReadMem(64 bytes @ 0x08000280) -- Updating C cache (64 bytes @ 0x08000280) -- Read from C cache (2 bytes @ 0x080002A2) - Data: 1C 49  returns 0x02 (0001ms, 0404ms total)
T113C 162:451 JLINK_Step() -- Read from C cache (2 bytes @ 0x080002A2) -- CPU_ReadMem(64 bytes @ 0x08000300) -- Updating C cache (64 bytes @ 0x08000300) -- Read from C cache (4 bytes @ 0x08000314) -- Simulated  returns 0x00 (0001ms, 0405ms total)
T113C 162:452 JLINK_ReadReg(R15 (PC))  returns 0x080002A4 (0000ms, 0405ms total)
T113C 162:452 JLINK_ReadReg(XPSR)  returns 0x81000000 (0000ms, 0405ms total)
T113C 162:452 JLINK_SetBPEx(Addr = 0x080002A2, Type = 0xFFFFFFF2)  returns 0x00000008 (0000ms, 0405ms total)
T113C 162:452 JLINK_Go() -- CPU_WriteMem(4 bytes @ 0xE0002000) -- CPU_ReadMem(4 bytes @ 0xE0001000) -- CPU_WriteMem(4 bytes @ 0xE0001004) (0002ms, 0407ms total)
T113C 162:555 JLINK_IsHalted()  returns FALSE (0000ms, 0407ms total)
T113C 162:656 JLINK_IsHalted()  returns FALSE (0000ms, 0407ms total)
T113C 162:757 JLINK_IsHalted()  returns FALSE (0000ms, 0407ms total)
T113C 162:858 JLINK_IsHalted()  returns FALSE (0000ms, 0407ms total)
T113C 162:960 JLINK_ReadMemU32(0xE0001004, 0x0001 Items, ...) -- CPU_ReadMem(4 bytes @ 0xE0001004) - Data: 31 78 24 0D  returns 0x01 (0000ms, 0407ms total)
T113C 162:960 JLINK_IsHalted()  returns FALSE (0001ms, 0408ms total)
T113C 163:061 JLINK_IsHalted()  returns TRUE (0002ms, 0409ms total)
T113C 163:063 JLINK_Halt()  returns 0x00 (0000ms, 0407ms total)
T113C 163:063 JLINK_IsHalted()  returns TRUE (0000ms, 0407ms total)
T113C 163:063 JLINK_IsHalted()  returns TRUE (0000ms, 0407ms total)
T113C 163:063 JLINK_IsHalted()  returns TRUE (0000ms, 0407ms total)
T113C 163:063 JLINK_ReadReg(R15 (PC))  returns 0x080002A2 (0000ms, 0407ms total)
T113C 163:063 JLINK_ReadReg(XPSR)  returns 0x81000000 (0000ms, 0407ms total)
T113C 163:063 JLINK_ClrBPEx(BPHandle = 0x00000008)  returns 0x00 (0000ms, 0407ms total)
